# 29. AXI4-Lite TAP

ID: `cvdp_copilot_axi_tap_0001`

난이도: medium / 분류: cid002 / 묶음: 3

선정 이유: 독립 채널의 트랜잭션 처리

## 문제 원문

Complete the partial SystemVerilog code for an **AXI4-Lite TAP (Transaction Access Point)** module that intercepts incoming AXI4-Lite transactions and intelligently routes them to the appropriate interface based on address ranges. The module will support two primary interfaces:
- **Peripheral Interface (Peripheral0)**: For addresses above `0x80000000`.
- **Default Interface**: For addresses below `0x80000000`.

AXI4-Lite is a lightweight protocol for communication between a master and a slave. It consists of the following channels:

1. **Write Address Channel (AW)**:  
   - Used by the master to send the address of a write transaction.
   - Key signals:  
     - `awvalid`: Indicates the address is valid.  
     - `awready`: Indicates the slave is ready to accept the address.

2. **Write Data Channel (W)**:  
   - Used by the master to send data to be written.  
   - Key signals:  
     - `wvalid`: Indicates the data is valid.  
     - `wready`: Indicates the slave is ready to accept the data.

3. **Write Response Channel (B)**:  
   - Used by the slave to send a response after processing a write transaction.  
   - Key signals:  
     - `bvalid`: Indicates the response is valid.  
     - `bready`: Indicates the master is ready to accept the response.

4. **Read Address Channel (AR)**:  
   - Used by the master to send the address of a read transaction.  
   - Key signals:  
     - `arvalid`: Indicates the address is valid.  
     - `arready`: Indicates the slave is ready to accept the address.

5. **Read Data Channel (R)**:  
   - Used by the slave to send the data in response to a read transaction.  
   - Key signals:  
     - `rvalid`: Indicates the data is valid.  
     - `rready`: Indicates the master is ready to accept the data.

**Important Protocol Details:**
- AW and W channels are **independent** and can arrive in any order. A write transaction is complete only when both AW and W have been received and acknowledged by the slave, and the response has been sent on the B channel.
- Handshake is performed using `valid` and `ready` signals for each channel. A transaction occurs when both `valid` and `ready` are asserted in the same clock cycle.
- Backpressure can occur if the slave is not ready to accept transactions, requiring the master to wait.

**Key Features of the TAP Logic:**

- **Address Decoding**: The module should use a **masking scheme** (e.g., `0x80000000`) to perform address matching and determine whether a transaction belongs to the Peripheral Interface or the Default Interface. This logic ensures that the correct interface is selected based on the address provided in the incoming transactions.

- **Pending Control Between AW and W Channels**:  
   - The module must maintain a small FIFO or tracking logic to pair AW and W transactions when they arrive out of order.  
   - The write response (B channel) must be sent only after both AW and W for the same transaction have been received.

- **Parameterization**: 
    - The design must support **parameterized address** and **data widths**, providing flexibility for different system configurations.
    - Parameters such as `ADDR_WIDTH`, `DATA_WIDTH`, and `MASK_WIDTH` should be configurable to adjust the address and data widths as per system requirements.

- **Routing Logic**:
    - The **TAP logic** must handle the routing of transactions to the **correct interface** based on address decoding.
    - **Address matching** should be achieved by performing a **bitwise AND operation** between the incoming address and a mask (`0x80000000`).
    - If the result matches the expected address range, the transaction is routed to the Peripheral Interface; otherwise, it is sent to the Default Interface.
    - The selected interface should determine how the **read** and **write** transactions are processed, including handling the relevant handshake signals.

 **Full AXI4-Lite Protocol Support:**

The module must handle the following **AXI4-Lite channels**:
1. **Write Address Channel (AW)**: Handles address information for write transactions.
2. **Write Data Channel (W)**: Contains the data for write transactions.
3. **Write Response Channel (B)**: Sends back the response for write transactions.
4. **Read Address Channel (AR)**: Handles address information for read transactions.
5. **Read Data Channel (R)**: Sends back the data for read transactions.

 **Reset and Synchronization:**

- The reset signal (`rst_i`) is **active low**. Upon reset, the TAP module should clear any pending transactions and prepare for normal operation.
- All logic in the module should be synchronized to the **positive edge of the clock** (`clk_i`).

 **Transaction Handling and Backpressure:**

- **Transaction Tracking**: The TAP module must track **both read and write transactions** to ensure proper order and synchronization between the interfaces.
- **Backpressure Management**: Backpressure logic should be integrated to prevent deadlocks or resource conflicts. This should ensure that transactions are only forwarded when the selected interface is ready to handle them.
    - The backpressure mechanism should consider the readiness of the write and read channels (e.g., `inport_awvalid_i`/`inport_awready_o` for writes and `inport_arvalid_i`/`inport_arready_o` for reads).
    - Use flags like `read_accept_w`, `write_accept_w` to control whether a transaction should be accepted and forwarded.
    - Implement mechanisms to prevent buffering or dropping transactions in case of congestion.

 **Latency and Performance Considerations:**

- **Low Latency**: The module should aim to minimize the **latency** of read and write requests, ensuring fast routing of transactions with minimal delay. Efficient address matching and routing logic should ensure that transactions are forwarded without unnecessary delays.
- **No Bottlenecks**: The design must avoid performance bottlenecks, particularly by **efficiently handling address matching** and **backpressure scenarios** to prevent throughput degradation.

 **Forwarding Read/Write Responses:**

- Once a transaction is routed to the appropriate interface (either **Peripheral0** or **Default**), the TAP module must ensure that the **read/write responses** are forwarded back to the initiator correctly.
    - The module should assert the proper handshake signals for the selected interface to complete the transaction.
    - If the transaction was routed to Peripheral0, the response from that interface should be forwarded to the initiator.
    - If the transaction was routed to the Default Interface, the response from that interface should similarly be forwarded.

 **Design Modularity and Scalability:**

- The design should be **modular** and **parameterized**, allowing for easy integration into larger **System-on-Chip (SoC)** designs.
- The use of parameters should allow for scalability, enabling the TAP module to handle different addresses and data widths based on the system configuration.

``` verilog

module axi_tap #(
    parameter ADDR_WIDTH = 32, // Width of AXI4-Lite Address
    parameter DATA_WIDTH = 32  // Width of AXI4-Lite Data
)(
    // Global Ports
    input           clk_i,
    input           rst_i,

    // Master Write Address Channel (AW)
    input           inport_awvalid_i,
    input  [ADDR_WIDTH-1:0]   inport_awaddr_i,
    output          inport_awready_o,
    // Master Write Data Channel (W)
    input           inport_wvalid_i,
    input  [DATA_WIDTH-1:0]   inport_wdata_i,
    input  [3:0]    inport_wstrb_i,
    output          inport_wready_o,
    // Master Write Response Channel (B)
    input           inport_bready_i,
    output          inport_bvalid_o,
    output [1:0]    inport_bresp_o,
    // Master Read Address Channel (AR)
    input           inport_arvalid_i,
    input  [ADDR_WIDTH-1:0]   inport_araddr_i,
    output          inport_arready_o,
    // Master Read Data Channel (R)
    input           inport_rready_i,
    output          inport_rvalid_o,
    output [DATA_WIDTH-1:0]   inport_rdata_o,
    output [1:0]    inport_rresp_o,

    // Default AXI outport
    // Write Address Channel (AW)
    input           outport_awready_i,
    output          outport_awvalid_o,
    output [ADDR_WIDTH-1:0]   outport_awaddr_o,
    // Write Data Channel (W)
    input           outport_wready_i,
    output          outport_wvalid_o,
    output [DATA_WIDTH-1:0]   outport_wdata_o,
    output [3:0]    outport_wstrb_o,
    // Write Response Channel (B)
    input           outport_bvalid_i,
    input  [1:0]    outport_bresp_i,
    output          outport_bready_o,
    // Read Address Channel (AR)
    input           outport_arready_i,
    output          outport_arvalid_o,
    output [ADDR_WIDTH-1:0]   outport_araddr_o,
    // Read Data Channel (R)
    input           outport_rvalid_i,
    input  [DATA_WIDTH-1:0]   outport_rdata_i,
    input  [1:0]    outport_rresp_i,
    output          outport_rready_o,

    // Peripheral 0 interface
    // Write Address Channel (AW)
    input           outport_peripheral0_awready_i,
    output          outport_peripheral0_awvalid_o,
    output [ADDR_WIDTH-1:0]   outport_peripheral0_awaddr_o,
    // Write Data Channel (W)
    input           outport_peripheral0_wready_i,
    output          outport_peripheral0_wvalid_o,
    output [DATA_WIDTH-1:0]   outport_peripheral0_wdata_o,
    output [3:0]    outport_peripheral0_wstrb_o,
    // Write Response Channel (B)
    input  [1:0]    outport_peripheral0_bresp_i,
    input           outport_peripheral0_bvalid_i,
    output          outport_peripheral0_bready_o,
    // Read Address Channel (AR)
    input           outport_peripheral0_arready_i,
    output          outport_peripheral0_arvalid_o,
    output [ADDR_WIDTH-1:0]   outport_peripheral0_araddr_o,
    // Read Data Channel (R)
    input  [1:0]    outport_peripheral0_rresp_i,
    input           outport_peripheral0_rvalid_i,
    input  [DATA_WIDTH-1:0]   outport_peripheral0_rdata_i,
    output          outport_peripheral0_rready_o
);

`define ADDR_SEL_W           1
`define PERIPH0_ADDR         32'h80000000
`define PERIPH0_MASK         32'h80000000

//-----------------------------------------------------------------
// AXI: Read
//-----------------------------------------------------------------
reg [3:0]              read_pending_q;
reg [3:0]              read_pending_r;
reg [`ADDR_SEL_W-1:0]  read_port_q;
reg [`ADDR_SEL_W-1:0]  read_port_r;

always @ *
// Insert read_port_r logic here

always @ *
// Insert read_pending_q logic here

always @ (posedge clk_i )
if (rst_i)
begin
    read_pending_q <= 4'b0;
    read_port_q    <= `ADDR_SEL_W'b0;
end
else 
begin
    read_pending_q <= read_pending_r;

    // Read command accepted
    if (inport_arvalid_i && inport_arready_o)
    begin
        read_port_q <= read_port_r;
    end
end

wire read_accept_w       = (read_port_q == read_port_r && read_pending_q != 4'hF) || (read_pending_q == 4'h0);

assign outport_arvalid_o = inport_arvalid_i & read_accept_w & (read_port_r == `ADDR_SEL_W'd0);
assign outport_araddr_o  = inport_araddr_i;
assign outport_rready_o  = inport_rready_i;

assign outport_peripheral0_arvalid_o = inport_arvalid_i & read_accept_w & (read_port_r == `ADDR_SEL_W'd1);
assign outport_peripheral0_araddr_o  = inport_araddr_i;
assign outport_peripheral0_rready_o  = inport_rready_i;

// Insert  AXI Read channel logic here

//-------------------------------------------------------------
// Write Request
//-------------------------------------------------------------
reg awvalid_q;
reg wvalid_q;

wire wr_cmd_accepted_w  = (inport_awvalid_i && inport_awready_o) || awvalid_q;
wire wr_data_accepted_w = (inport_wvalid_i  && inport_wready_o)  || wvalid_q;

always @ (posedge clk_i )
if (rst_i)
    awvalid_q <= 1'b0;
else if (inport_awvalid_i && inport_awready_o && (!wr_data_accepted_w))
    awvalid_q <= 1'b1;
else if (wr_data_accepted_w)
    awvalid_q <= 1'b0;

always @ (posedge clk_i )
if (rst_i)
    wvalid_q <= 1'b0;
else if (inport_wvalid_i && inport_wready_o && !wr_cmd_accepted_w)
    wvalid_q <= 1'b1;
else if (wr_cmd_accepted_w)
    wvalid_q <= 1'b0;

//-----------------------------------------------------------------
// AXI: Write
//-----------------------------------------------------------------



// Insert AXI write channel logic here


wire write_accept_w      = (write_port_q == write_port_r && write_pending_q != 4'hF) || (write_pending_q == 4'h0);

assign outport_awvalid_o = inport_awvalid_i & ~awvalid_q & write_accept_w & (write_port_r == `ADDR_SEL_W'd0);
assign outport_awaddr_o  = inport_awaddr_i;
assign outport_wvalid_o  = inport_wvalid_i & ~wvalid_q & (inport_awvalid_i || awvalid_q) & (write_port_r == `ADDR_SEL_W'd0);
assign outport_wdata_o   = inport_wdata_i;
assign outport_wstrb_o   = inport_wstrb_i;
assign outport_bready_o  = inport_bready_i;

assign outport_peripheral0_awvalid_o = inport_awvalid_i & ~awvalid_q & write_accept_w & (write_port_r == `ADDR_SEL_W'd1);
assign outport_peripheral0_awaddr_o  = inport_awaddr_i;
assign outport_peripheral0_wvalid_o  = inport_wvalid_i & ~wvalid_q & ((inport_awvalid_i && write_accept_w) || awvalid_q) & (write_port_r == `ADDR_SEL_W'd1);
assign outport_peripheral0_wdata_o   = inport_wdata_i;
assign outport_peripheral0_wstrb_o   = inport_wstrb_i;
assign outport_peripheral0_bready_o  = inport_bready_i;

reg        outport_bvalid_r;
reg [1:0]  outport_bresp_r;

always @ *
begin
    case (write_port_q)
    `ADDR_SEL_W'd1:
    begin
        outport_bvalid_r = outport_peripheral0_bvalid_i;
        outport_bresp_r  = outport_peripheral0_bresp_i;
    end
    default:
    begin
        outport_bvalid_r = outport_bvalid_i;
        outport_bresp_r  = outport_bresp_i;
    end
    endcase
end

assign inport_bvalid_o  = outport_bvalid_r;
assign inport_bresp_o   = outport_bresp_r;

reg inport_awready_r;
reg inport_wready_r;

always @ *
begin
    case (write_port_r)
    `ADDR_SEL_W'd1:
    begin
        inport_awready_r = outport_peripheral0_awready_i;
        inport_wready_r  = outport_peripheral0_wready_i;
    end
    default:
    begin
        inport_awready_r = outport_awready_i;
        inport_wready_r  = outport_wready_i;
    end        
    endcase
end

assign inport_awready_o = write_accept_w & ~awvalid_q & inport_awready_r;
assign inport_wready_o  = write_accept_w & ~wvalid_q & inport_wready_r;


endmodule
```

## 제공 코드·문서

